Circuit: * E:\Claudio\Docencia personal\LTSpice\Operacionales\diferencial1.asc

Direct Newton iteration for .op point succeeded.
Semiconductor Device Operating Points:
                        --- Bipolar Transistors ---
Name:       q6          q3          q5          q4          q2
Model:    2n3904      2n3904      2n2222      2n2222      2n2222
Ib:       1.55e-06    1.55e-06    2.33e-06    2.33e-06    2.33e-06
Ic:       4.99e-04    4.99e-04    4.98e-04    4.98e-04    4.98e-04
Vbe:      6.35e-01    6.35e-01    6.35e-01    6.35e-01    6.35e-01
Vbc:     -7.01e+00   -7.01e+00   -7.02e+00   -7.02e+00   -7.02e+00
Vce:      7.65e+00    7.65e+00    7.66e+00    7.66e+00    7.66e+00
BetaDC:   3.21e+02    3.21e+02    2.14e+02    2.14e+02    2.14e+02
Gm:       1.92e-02    1.92e-02    1.92e-02    1.92e-02    1.92e-02
Rpi:      1.66e+04    1.66e+04    1.11e+04    1.11e+04    1.11e+04
Rx:       2.00e+01    2.00e+01    1.00e+01    1.00e+01    1.00e+01
Ro:       2.15e+05    2.15e+05    2.15e+05    2.15e+05    2.15e+05
Cbe:      1.91e-11    1.91e-11    4.63e-11    4.63e-11    4.63e-11
Cbc:      1.85e-12    1.85e-12    3.70e-12    3.70e-12    3.70e-12
Cjs:      0.00e+00    0.00e+00    0.00e+00    0.00e+00    0.00e+00
BetaAC:   3.20e+02    3.20e+02    2.13e+02    2.13e+02    2.13e+02
Cbx:      0.00e+00    0.00e+00    0.00e+00    0.00e+00    0.00e+00
Ft:       1.46e+08    1.46e+08    6.11e+07    6.11e+07    6.11e+07

Name:       q1
Model:    2n2222
Ib:       2.33e-06
Ic:       4.98e-04
Vbe:      6.35e-01
Vbc:     -7.02e+00
Vce:      7.66e+00
BetaDC:   2.14e+02
Gm:       1.92e-02
Rpi:      1.11e+04
Rx:       1.00e+01
Ro:       2.15e+05
Cbe:      4.63e-11
Cbc:      3.70e-12
Cjs:      0.00e+00
BetaAC:   2.13e+02
Cbx:      0.00e+00
Ft:       6.11e+07



Date: Wed Apr 27 19:32:00 2022
Total elapsed time: 0.159 seconds.

tnom = 27
temp = 27
method = trap
totiter = 8
traniter = 0
tranpoints = 0
accept = 0
rejected = 0
matrix size = 37
fillins = 0
solver = Normal
Matrix Compiler1: 2.02 KB object code size
Matrix Compiler2: 2.89 KB object code size
