LTspice 24.0.12 for Windows
Circuit: * E:\Claudio\Docencia personal\LTSpice\Operacionales\Draft1.asc
Start Time: Thu Sep 19 14:16:48 2024
solver = Normal
Maximum thread count: 8
tnom = 27
temp = 27
method = modified trap
Direct Newton iteration for .op point succeeded.
Semiconductor Device Operating Points:
                        --- Diodes ---
Name:    d:u1:1      d:u1:4
Model:    u1:x        u1:di
Id:     -3.36e-13   -1.52e-14
Vd:     -3.36e-01   -1.52e-05
Req:     1.00e-12    1.00e-09
CAP:     0.00e+00    0.00e+00

                        --- VDMOSFET Transistors ---
Name:        m:u1:1      m:u1:2
Model:        u1:n        u1:p
Id:          1.01e-02   -2.50e-11
Vgs:         3.36e-01    3.36e-01
Vds:         3.00e+00   -2.50e+01
Vth:        -3.00e-01    3.00e-01
Gm:          3.18e-02    0.00e+00
Gds:         0.00e+00    0.00e+00
Cgs:         0.00e+00    0.00e+00
Cgd:         0.00e+00    0.00e+00
Cbody:       0.00e+00    0.00e+00


Total elapsed time: 0.187 seconds.

