LTspice 24.0.12 for Windows
Circuit: * E:\Claudio\Docencia personal\LTSpice\Operacionales\fuentecorriente.asc
Start Time: Tue Oct  8 14:57:54 2024
solver = Normal
Maximum thread count: 8
tnom = 27
temp = 27
method = modified trap
Direct Newton iteration for .op point succeeded.
Semiconductor Device Operating Points:
                        --- Diodes ---
Name:    d:u1:1      d:u1:4      d:u2:1      d:u2:4
Model:    u1:x        u1:di       u2:x        u2:di
Id:     -2.84e-13   -1.24e-14    3.48e-13    1.25e-14
Vd:     -2.83e-01   -1.24e-05    3.48e-01    1.25e-05
Req:     1.00e-12    1.00e-09    1.00e-12    1.00e-09
CAP:     0.00e+00    0.00e+00    0.00e+00    0.00e+00

                        --- VDMOSFET Transistors ---
Name:        m:u1:1      m:u1:2      m:u2:1      m:u2:2
Model:        u1:n        u1:p        u2:n        u2:p
Id:          8.51e-03   -6.95e-06    2.40e-11   -1.05e-02
Vgs:         2.83e-01    2.83e-01   -3.48e-01   -3.48e-01
Vds:         6.00e+00   -2.40e+01    2.40e+01   -6.00e+00
Vth:        -3.00e-01    3.00e-01   -3.00e-01    3.00e-01
Gm:          2.92e-02    8.34e-04    0.00e+00    3.24e-02
Gds:         0.00e+00    0.00e+00    0.00e+00    0.00e+00
Cgs:         0.00e+00    0.00e+00    0.00e+00    0.00e+00
Cgd:         0.00e+00    0.00e+00    0.00e+00    0.00e+00
Cbody:       0.00e+00    0.00e+00    0.00e+00    0.00e+00


Total elapsed time: 0.194 seconds.

