Circuit: * E:\Claudio\Docencia personal\LTSpice\Operacionales\oper_carga2.asc

Early termination of direct N-R iteration.
Direct Newton iteration failed to find .op point.  (Use ".option noopiter" to skip.)
Starting Gmin stepping
Increasing initial diagonal Gmin to 100
Increasing initial diagonal Gmin to 1000
Gmin = 1000
vernier = 0.5
vernier = 0.25
vernier = 0.125
vernier = 0.0625
Gmin = 836.601
vernier = 0.03125
vernier = 0.015625
vernier = 0.0078125
vernier = 0.00390625
Gmin = 822.125
vernier = 0.00195313
vernier = 0.000976563
vernier = 0.000488281
Gmin = 0
Gmin = 0
Gmin stepping failed

Starting source stepping with srcstepmethod=0
Source Step = 3.0303%
Source Step = 33.3333%
Source Step = 63.6364%
Source Step = 93.9394%
Source stepping succeeded in finding the operating point.

Semiconductor Device Operating Points:
                        --- Diodes ---
Name:    d:u3:p      d:u3:ln     d:u3:lp     d:u3:e      d:u3:c
Model:    u3:dx       u3:dx       u3:dx       u3:dy       u3:dy
Id:     -3.00e-11   -4.10e-11   -3.90e-11   -1.78e-11   -1.27e-11
Vd:     -3.00e+01   -4.10e+01   -3.90e+01   -1.51e+01   -1.29e+01
Req:     1.00e+12    1.00e+12    1.00e+12    1.00e+12    1.00e+12
CAP:     0.00e+00    0.00e+00    0.00e+00    2.49e-12    2.68e-12

Name:    d:u2:p      d:u2:ln     d:u2:lp     d:u2:e      d:u2:c
Model:    u2:dx       u2:dx       u2:dx       u2:dy       u2:dy
Id:     -3.00e-11   -4.10e-11   -3.90e-11   -1.78e-11   -1.27e-11
Vd:     -3.00e+01   -4.10e+01   -3.90e+01   -1.51e+01   -1.29e+01
Req:     1.00e+12    1.00e+12    1.00e+12    1.00e+12    1.00e+12
CAP:     0.00e+00    0.00e+00    0.00e+00    2.49e-12    2.68e-12

Name:    d:u1:p      d:u1:ln     d:u1:lp     d:u1:e      d:u1:c
Model:    u1:dx       u1:dx       u1:dx       u1:dy       u1:dy
Id:     -3.00e-11   -4.20e-11   -3.80e-11   -1.78e-11   -1.29e-11
Vd:     -3.00e+01   -4.20e+01   -3.80e+01   -1.50e+01   -1.30e+01
Req:     1.00e+12    1.00e+12    1.00e+12    1.00e+12    1.00e+12
CAP:     0.00e+00    0.00e+00    0.00e+00    2.50e-12    2.67e-12

                        --- Bipolar Transistors ---
Name:     q:u3:2      q:u3:1      q:u2:2      q:u2:1      q:u1:2
Model:     u3:qx       u3:qx       u2:qx       u2:qx       u1:qx
Ib:       8.02e-08    8.01e-08    8.02e-08    8.01e-08    8.02e-08
Ic:       7.52e-06    7.51e-06    7.52e-06    7.51e-06    7.52e-06
Vbe:      5.94e-01    5.94e-01    5.94e-01    5.94e-01    5.94e-01
Vbc:     -1.40e+01   -1.40e+01   -1.40e+01   -1.40e+01   -1.40e+01
Vce:      1.46e+01    1.46e+01    1.46e+01    1.46e+01    1.46e+01
BetaDC:   9.38e+01    9.38e+01    9.38e+01    9.38e+01    9.38e+01
Gm:       2.91e-04    2.90e-04    2.91e-04    2.90e-04    2.91e-04
Rpi:      3.23e+05    3.23e+05    3.23e+05    3.23e+05    3.23e+05
Rx:       0.00e+00    0.00e+00    0.00e+00    0.00e+00    0.00e+00
Ro:       0.00e+00    0.00e+00    0.00e+00    0.00e+00    0.00e+00
Cbe:      0.00e+00    0.00e+00    0.00e+00    0.00e+00    0.00e+00
Cbc:      0.00e+00    0.00e+00    0.00e+00    0.00e+00    0.00e+00
Cjs:      0.00e+00    0.00e+00    0.00e+00    0.00e+00    0.00e+00
BetaAC:   9.37e+01    9.37e+01    9.37e+01    9.37e+01    9.37e+01
Cbx:      0.00e+00    0.00e+00    0.00e+00    0.00e+00    0.00e+00
Ft:       0.00e+00    0.00e+00    0.00e+00    0.00e+00    0.00e+00

Name:     q:u1:1
Model:     u1:qx
Ib:       8.01e-08
Ic:       7.51e-06
Vbe:      5.94e-01
Vbc:     -1.40e+01
Vce:      1.46e+01
BetaDC:   9.38e+01
Gm:       2.90e-04
Rpi:      3.23e+05
Rx:       0.00e+00
Ro:       0.00e+00
Cbe:      0.00e+00
Cbc:      0.00e+00
Cjs:      0.00e+00
BetaAC:   9.37e+01
Cbx:      0.00e+00
Ft:       0.00e+00



Date: Thu Sep 19 11:58:49 2024
Total elapsed time: 11.044 seconds.

tnom = 27
temp = 27
method = trap
totiter = 1795
traniter = 0
tranpoints = 0
accept = 0
rejected = 0
matrix size = 95
fillins = 319
solver = Normal

