Circuit: * E:\Claudio\Docencia personal\LTSpice\Operacionales\oper_carga.asc

Early termination of direct N-R iteration.
Direct Newton iteration failed to find .op point.  (Use ".option noopiter" to skip.)
Starting Gmin stepping
Increasing initial diagonal Gmin to 100
Increasing initial diagonal Gmin to 1000
Gmin = 1000
vernier = 0.5
vernier = 0.25
vernier = 0.125
vernier = 0.0625
Gmin = 836.601
vernier = 0.03125
vernier = 0.015625
vernier = 0.0078125
vernier = 0.00390625
Gmin = 822.125
vernier = 0.00195313
vernier = 0.000976563
vernier = 0.000488281
Gmin = 0
Gmin = 0
Gmin stepping succeeded in finding the operating point.

Semiconductor Device Operating Points:
                        --- Diodes ---
Name:    d:u3:p      d:u3:ln     d:u3:lp     d:u3:e      d:u3:c
Model:    u3:dx       u3:dx       u3:dx       u3:dy       u3:dy
Id:     -3.00e-11   -7.34e-11   -6.55e-12   -2.66e-11   -1.78e-12
Vd:     -3.00e+01   -7.34e+01   -6.55e+00   -2.50e+01   -3.00e+00
Req:     1.00e+12    1.00e+12    1.00e+12    1.00e+12    1.00e+12
CAP:     0.00e+00    0.00e+00    0.00e+00    1.96e-12    5.00e-12

Name:    d:u2:p      d:u2:ln     d:u2:lp     d:u2:e      d:u2:c
Model:    u2:dx       u2:dx       u2:dx       u2:dy       u2:dy
Id:     -3.00e-11   -7.34e-11   -6.55e-12   -2.66e-11   -1.78e-12
Vd:     -3.00e+01   -7.34e+01   -6.55e+00   -2.50e+01   -3.00e+00
Req:     1.00e+12    1.00e+12    1.00e+12    1.00e+12    1.00e+12
CAP:     0.00e+00    0.00e+00    0.00e+00    1.96e-12    5.00e-12

Name:    d:u1:p      d:u1:ln     d:u1:lp     d:u1:e      d:u1:c
Model:    u1:dx       u1:dx       u1:dx       u1:dy       u1:dy
Id:     -3.00e-11   -7.33e-11   -6.70e-12   -2.66e-11   -3.55e-12
Vd:     -3.00e+01   -7.33e+01   -6.70e+00   -2.40e+01   -4.00e+00
Req:     1.00e+12    1.00e+12    1.00e+12    1.00e+12    1.00e+12
CAP:     0.00e+00    0.00e+00    0.00e+00    2.00e-12    4.47e-12

                        --- Bipolar Transistors ---
Name:     q:u3:2      q:u3:1      q:u2:2      q:u2:1      q:u1:2
Model:     u3:qx       u3:qx       u2:qx       u2:qx       u1:qx
Ib:       8.42e-08    8.34e-08    8.42e-08    8.34e-08    8.41e-08
Ic:       7.89e-06    7.82e-06    7.89e-06    7.82e-06    7.89e-06
Vbe:      5.95e-01    5.95e-01    5.95e-01    5.95e-01    5.95e-01
Vbc:     -4.96e+00   -4.96e+00   -4.96e+00   -4.96e+00   -4.96e+00
Vce:      5.55e+00    5.55e+00    5.55e+00    5.55e+00    5.55e+00
BetaDC:   9.38e+01    9.38e+01    9.38e+01    9.38e+01    9.38e+01
Gm:       3.05e-04    3.02e-04    3.05e-04    3.02e-04    3.05e-04
Rpi:      3.07e+05    3.10e+05    3.07e+05    3.10e+05    3.07e+05
Rx:       0.00e+00    0.00e+00    0.00e+00    0.00e+00    0.00e+00
Ro:       5.85e+96    6.02e+96    5.85e+96    6.02e+96    5.77e+96
Cbe:      0.00e+00    0.00e+00    0.00e+00    0.00e+00    0.00e+00
Cbc:      0.00e+00    0.00e+00    0.00e+00    0.00e+00    0.00e+00
Cjs:      0.00e+00    0.00e+00    0.00e+00    0.00e+00    0.00e+00
BetaAC:   9.37e+01    9.37e+01    9.37e+01    9.37e+01    9.37e+01
Cbx:      0.00e+00    0.00e+00    0.00e+00    0.00e+00    0.00e+00
Ft:       0.00e+00    0.00e+00    0.00e+00    0.00e+00    0.00e+00

Name:     q:u1:1
Model:     u1:qx
Ib:       8.34e-08
Ic:       7.82e-06
Vbe:      5.95e-01
Vbc:     -4.96e+00
Vce:      5.55e+00
BetaDC:   9.38e+01
Gm:       3.02e-04
Rpi:      3.10e+05
Rx:       0.00e+00
Ro:       5.94e+96
Cbe:      0.00e+00
Cbc:      0.00e+00
Cjs:      0.00e+00
BetaAC:   9.37e+01
Cbx:      0.00e+00
Ft:       0.00e+00



Date: Wed Sep 18 14:02:35 2024
Total elapsed time: 0.307 seconds.

tnom = 27
temp = 27
method = trap
totiter = 1685
traniter = 0
tranpoints = 0
accept = 0
rejected = 0
matrix size = 95
fillins = 373
solver = Normal

