LTspice 24.0.12 for Windows
Circuit: * E:\Claudio\Docencia personal\LTSpice\Operacionales\p2e1.asc
Start Time: Wed May 28 10:43:53 2025
solver = Normal
Maximum thread count: 8
tnom = 27
temp = 27
method = modified trap
Early termination of direct N-R iteration.
Direct Newton iteration failed to find .op point.  (Use ".option noopiter" to skip.)
Starting Gmin stepping
Increasing initial diagonal Gmin to 100
Increasing initial diagonal Gmin to 1000
Gmin = 1000
vernier = 0.5
vernier = 0.25
vernier = 0.125
vernier = 0.0625
Gmin = 836.601
vernier = 0.03125
vernier = 0.015625
vernier = 0.0078125
vernier = 0.00390625
Gmin = 822.125
vernier = 0.00195312
vernier = 0.000976562
vernier = 0.000488281
Gmin = 0
Gmin = 0
Gmin stepping failed

Starting source stepping with srcstepmethod=0
Source Step = 3.0303%
Source Step = 33.3333%
Source Step = 63.6364%
Source Step = 93.9394%
Source stepping succeeded in finding the operating point.

Semiconductor Device Operating Points:
                        --- Diodes ---
Name:    d:u1:c      d:u1:e      d:u1:lp     d:u1:ln     d:u1:p
Model:    u1:dy       u1:dy       u1:dx       u1:dx       u1:dx
Id:     -7.88e-12   -1.24e-11   -4.00e-11   -4.00e-11   -2.00e-11
Vd:     -8.00e+00   -1.00e+01   -4.00e+01   -4.00e+01   -2.00e+01
Req:     1.00e+12    1.00e+12    1.00e+12    1.00e+12    1.00e+12
CAP:     3.33e-12    3.02e-12    0.00e+00    0.00e+00    0.00e+00

Name:    d:u2:c      d:u2:e      d:u2:lp     d:u2:ln     d:u2:p
Model:    u2:dy       u2:dy       u2:dx       u2:dx       u2:dx
Id:     -6.88e-12   -1.24e-11   -4.00e-11   -4.00e-11   -2.00e-11
Vd:     -7.00e+00   -1.10e+01   -4.00e+01   -4.00e+01   -2.00e+01
Req:     1.00e+12    1.00e+12    1.00e+12    1.00e+12    1.00e+12
CAP:     3.54e-12    2.89e-12    0.00e+00    0.00e+00    0.00e+00

Name:    d:u3:c      d:u3:e      d:u3:lp     d:u3:ln     d:u3:p
Model:    u3:dy       u3:dy       u3:dx       u3:dx       u3:dx
Id:     -6.88e-12   -1.24e-11   -4.00e-11   -4.00e-11   -2.00e-11
Vd:     -7.00e+00   -1.10e+01   -4.00e+01   -4.00e+01   -2.00e+01
Req:     1.00e+12    1.00e+12    1.00e+12    1.00e+12    1.00e+12
CAP:     3.54e-12    2.89e-12    0.00e+00    0.00e+00    0.00e+00

                        --- Bipolar Transistors ---
Name:     q:u1:1      q:u1:2      q:u2:1      q:u2:2      q:u3:1
Model:     u1:qx       u1:qx       u2:qx       u2:qx       u3:qx
Ib:       8.01e-08    8.02e-08    8.05e-08    8.06e-08    8.02e-08
Ic:       7.51e-06    7.52e-06    7.55e-06    7.56e-06    7.52e-06
Vbe:      5.94e-01    5.94e-01    5.94e-01    5.94e-01    5.94e-01
Vbc:     -8.96e+00   -8.96e+00   -7.96e+00   -7.96e+00   -8.63e+00
Vce:      9.55e+00    9.55e+00    8.55e+00    8.55e+00    9.22e+00
BetaDC:   9.38e+01    9.38e+01    9.38e+01    9.38e+01    9.38e+01
Gm:       2.90e-04    2.91e-04    2.92e-04    2.92e-04    2.91e-04
Rpi:      3.23e+05    3.23e+05    3.21e+05    3.21e+05    3.22e+05
Rx:       0.00e+00    0.00e+00    0.00e+00    0.00e+00    0.00e+00
Ro:       0.00e+00    0.00e+00    0.00e+00    0.00e+00    0.00e+00
Cbe:      0.00e+00    0.00e+00    0.00e+00    0.00e+00    0.00e+00
Cbc:      0.00e+00    0.00e+00    0.00e+00    0.00e+00    0.00e+00
Cjs:      0.00e+00    0.00e+00    0.00e+00    0.00e+00    0.00e+00
BetaAC:   9.37e+01    9.37e+01    9.37e+01    9.37e+01    9.37e+01
Cbx:      0.00e+00    0.00e+00    0.00e+00    0.00e+00    0.00e+00
Ft:       0.00e+00    0.00e+00    0.00e+00    0.00e+00    0.00e+00

Name:     q:u3:2
Model:     u3:qx
Ib:       8.03e-08
Ic:       7.53e-06
Vbe:      5.94e-01
Vbc:     -8.63e+00
Vce:      9.22e+00
BetaDC:   9.38e+01
Gm:       2.91e-04
Rpi:      3.22e+05
Rx:       0.00e+00
Ro:       0.00e+00
Cbe:      0.00e+00
Cbc:      0.00e+00
Cjs:      0.00e+00
BetaAC:   9.37e+01
Cbx:      0.00e+00
Ft:       0.00e+00


Total elapsed time: 0.351 seconds.

