Circuit: * E:\Claudio\Docencia personal\LTSpice\realimentación\parcial 1 e2 2024.asc

Direct Newton iteration for .op point succeeded.
Semiconductor Device Operating Points:
                        --- Bipolar Transistors ---
Name:       q3          q2          q1
Model:    2n2222      2n2222      2n2222
Ib:       5.65e-06    4.50e-06    4.80e-06
Ic:       1.14e-03    9.12e-04    9.68e-04
Vbe:      6.59e-01    6.53e-01    6.54e-01
Vbc:     -1.61e+00   -1.73e+00   -1.16e+00
Vce:      2.27e+00    2.39e+00    1.81e+00
BetaDC:   2.02e+02    2.03e+02    2.02e+02
Gm:       4.40e-02    3.51e-02    3.73e-02
Rpi:      4.58e+03    5.75e+03    5.39e+03
Rx:       1.00e+01    1.00e+01    1.00e+01
Ro:       8.89e+04    1.12e+05    1.05e+05
Cbe:      5.69e-11    5.32e-11    5.41e-11
Cbc:      5.48e-12    5.39e-12    5.88e-12
Cjs:      0.00e+00    0.00e+00    0.00e+00
BetaAC:   2.02e+02    2.02e+02    2.01e+02
Cbx:      0.00e+00    0.00e+00    0.00e+00
Ft:       1.12e+08    9.55e+07    9.90e+07



Date: Wed Apr 03 14:37:55 2024
Total elapsed time: 0.361 seconds.

tnom = 27
temp = 27
method = trap
totiter = 7
traniter = 0
tranpoints = 0
accept = 0
rejected = 0
matrix size = 20
fillins = 8
solver = Normal
Matrix Compiler1:      97 opcodes
Matrix Compiler2: 1.80 KB object code size
