
**** 01/19/94 14:53:07 ********* PSpice 6.0 (Jan 1994) ******** ID# 10807 ****

 * /release/60/skel/examples/ana/example/example.sch


 ****     CIRCUIT DESCRIPTION


******************************************************************************




* Schematics Version 6.0p - November 1993
* Fri Nov 19 09:38:28 1993


** Analysis setup **
.tran 20ns 1000ns
.four 1Meg V([OUT2])
.TEMP 35
.OP 


* From [SCHEMATICS NETLIST] section of msim.ini:
.lib nom.lib

.INC "example.net"

**** INCLUDING example.net ****
* Schematics Netlist *



R_RBIAS  $N_0001 VDD 20k 
R_RC1    OUT1 VDD 10k 
R_RC2    OUT2 VDD 10k 
R_RS2    $N_0002 0 1k 
R_RS1    $N_0004 $N_0003 1k 
Q_Q3     $N_0001 $N_0001 VEE Q2N2222
Q_Q4     $N_0005 $N_0001 VEE Q2N2222
Q_Q1     OUT1 $N_0003 $N_0005 Q2N2222
Q_Q2     OUT2 $N_0002 $N_0005 Q2N2222
C_CLOAD  OUT1 OUT2 5p 
V_V3     VEE 0 DC -12  
V_V2     VDD 0 DC +12  
V_V1     $N_0004 0 DC .125 AC 1
+SIN 0v 0.1v 5Meg 0 0 0

**** RESUMING /tmp_mnt/net/goofy/local/work/test/examples/ana/example/example.cir ****
.INC "example.als"

**** INCLUDING example.als ****
* Schematics Aliases *

.ALIASES
R_RBIAS   RBIAS(1=$N_0001 2=VDD )
R_RC1      RC1(1=OUT1 2=VDD )
R_RC2      RC2(1=OUT2 2=VDD )
R_RS2      RS2(1=$N_0002 2=0 )
R_RS1      RS1(1=$N_0004 2=$N_0003 )
Q_Q3        Q3(c=$N_0001 b=$N_0001 e=VEE )
Q_Q4        Q4(c=$N_0005 b=$N_0001 e=VEE )
Q_Q1        Q1(c=OUT1 b=$N_0003 e=$N_0005 )
Q_Q2        Q2(c=OUT2 b=$N_0002 e=$N_0005 )
C_CLOAD   CLOAD(1=OUT1 2=OUT2 )
V_V3        V3(+=VEE -=0 )
V_V2        V2(+=VDD -=0 )
V_V1        V1(+=$N_0004 -=0 )
_    _(OUT1=OUT1)
_    _(OUT2=OUT2)
_    _(VEE=VEE)
_    _(VDD=VDD)
.ENDALIASES


**** RESUMING /tmp_mnt/net/goofy/local/work/test/examples/ana/example/example.cir ****


.probe


.END

**** 01/19/94 14:53:07 ********* PSpice 6.0 (Jan 1994) ******** ID# 10807 ****

 * /release/60/skel/examples/ana/example/example.sch


 ****     BJT MODEL PARAMETERS


******************************************************************************




               Q2N2222         
               NPN             
          IS   14.340000E-15 
          BF  255.9          
          NF    1            
         VAF   74.03         
         IKF     .2847       
         ISE   14.340000E-15 
          NE    1.307        
          BR    6.092        
          NR    1            
          RB   10            
         RBM   10            
          RC    1            
         CJE   22.010000E-12 
         MJE     .377        
         CJC    7.306000E-12 
         MJC     .3416       
          TF  411.100000E-12 
         XTF    3            
         VTF    1.7          
         ITF     .6          
          TR   46.910000E-09 
         XTB    1.5          


**** 01/19/94 14:53:07 ********* PSpice 6.0 (Jan 1994) ******** ID# 10807 ****

 * /release/60/skel/examples/ana/example/example.sch


 ****     TEMPERATURE-ADJUSTED VALUES      TEMPERATURE =   35.000 DEG C


******************************************************************************






 **** BJT MODEL PARAMETERS
 NAME          BF        ISE        VJE        CJE         RE        RB 
               BR        ISC        VJC        CJC         RC        RBM
               IS        ISS        VJS        CJS
 Q2N2222    2.662E+02  3.434E-14  7.360E-01  2.219E-11  0.000E+00  1.000E+01
            6.337E+00  0.000E+00  7.360E-01  7.361E-12  1.000E+00  1.000E+01
            4.728E-14  0.000E+00  7.360E-01  0.000E+00

**** 01/19/94 14:53:07 ********* PSpice 6.0 (Jan 1994) ******** ID# 10807 ****

 * /release/60/skel/examples/ana/example/example.sch


 ****     SMALL SIGNAL BIAS SOLUTION       TEMPERATURE =   35.000 DEG C


******************************************************************************



 NODE   VOLTAGE     NODE   VOLTAGE     NODE   VOLTAGE     NODE   VOLTAGE


(  VDD)   12.0000  (  VEE)  -12.0000  ( OUT1)    -.4803  ( OUT2)   11.5570      

($N_0001)  -11.3650                   ($N_0002)-369.0E-06                       

($N_0003)     .0957                   ($N_0004)     .1250                       

($N_0005)    -.5451                   




    VOLTAGE SOURCE CURRENTS
    NAME         CURRENT

    V_V3         2.490E-03
    V_V2        -2.461E-03
    V_V1        -2.928E-05

    TOTAL POWER DISSIPATION   5.94E-02  WATTS


**** 01/19/94 14:53:07 ********* PSpice 6.0 (Jan 1994) ******** ID# 10807 ****

 * /release/60/skel/examples/ana/example/example.sch


 ****     OPERATING POINT INFORMATION      TEMPERATURE =   35.000 DEG C


******************************************************************************






**** BIPOLAR JUNCTION TRANSISTORS


NAME         Q_Q3        Q_Q4        Q_Q1        Q_Q2      
MODEL        Q2N2222     Q2N2222     Q2N2222     Q2N2222   
IB           7.40E-06    7.40E-06    2.93E-05    3.69E-07 
IC           1.15E-03    1.32E-03    1.25E-03    4.43E-05 
VBE          6.35E-01    6.35E-01    6.41E-01    5.45E-01 
VBC          0.00E+00   -1.08E+01    5.76E-01   -1.16E+01 
VCE          6.35E-01    1.15E+01    6.48E-02    1.21E+01 
BETADC       1.56E+02    1.79E+02    4.26E+01    1.20E+02 
GM           4.32E-02    4.96E-02    4.75E-02    1.67E-03 
RPI          3.97E+03    3.97E+03    3.31E+03    8.40E+04 
RX           1.00E+01    1.00E+01    1.00E+01    1.00E+01 
RO           6.42E+04    6.42E+04    2.07E+02    1.93E+06 
CBE          5.45E-11    5.71E-11    5.84E-11    3.47E-11 
CBC          7.36E-12    2.87E-12    2.40E-10    2.81E-12 
CBX          0.00E+00    0.00E+00    0.00E+00    0.00E+00 
CJS          0.00E+00    0.00E+00    0.00E+00    0.00E+00 
BETAAC       1.72E+02    1.97E+02    1.57E+02    1.40E+02 
FT           1.11E+08    1.32E+08    2.54E+07    7.07E+06 


**** 01/19/94 14:53:07 ********* PSpice 6.0 (Jan 1994) ******** ID# 10807 ****

 * /release/60/skel/examples/ana/example/example.sch


 ****     INITIAL TRANSIENT SOLUTION       TEMPERATURE =   35.000 DEG C


******************************************************************************



 NODE   VOLTAGE     NODE   VOLTAGE     NODE   VOLTAGE     NODE   VOLTAGE


(  VDD)   12.0000  (  VEE)  -12.0000  ( OUT1)    5.4378  ( OUT2)    5.4378      

($N_0001)  -11.3650                   ($N_0002)    -.0042                       

($N_0003)    -.0042                   ($N_0004)    0.0000                       

($N_0005)    -.6225                   




    VOLTAGE SOURCE CURRENTS
    NAME         CURRENT

    V_V3         2.489E-03
    V_V2        -2.481E-03
    V_V1        -4.176E-06

    TOTAL POWER DISSIPATION   5.96E-02  WATTS


**** 01/19/94 14:53:07 ********* PSpice 6.0 (Jan 1994) ******** ID# 10807 ****

 * /release/60/skel/examples/ana/example/example.sch


 ****     FOURIER ANALYSIS                 TEMPERATURE =   35.000 DEG C


******************************************************************************



FOURIER COMPONENTS OF TRANSIENT RESPONSE V(OUT2)



 DC COMPONENT =   5.647539E+00

 HARMONIC   FREQUENCY    FOURIER    NORMALIZED    PHASE        NORMALIZED
    NO         (HZ)     COMPONENT    COMPONENT    (DEG)       PHASE (DEG)

     1     1.000E+06    7.610E-02    1.000E+00    1.130E+01    0.000E+00
     2     2.000E+06    3.841E-02    5.048E-01    7.512E+00   -3.793E+00
     3     3.000E+06    2.571E-02    3.379E-01    6.971E+00   -4.334E+00
     4     4.000E+06    1.943E-02    2.554E-01    6.225E+00   -5.080E+00
     5     5.000E+06    3.248E-01    4.268E+00   -9.801E+01   -1.093E+02
     6     6.000E+06    1.220E-02    1.603E-01    7.829E+00   -3.476E+00
     7     7.000E+06    1.072E-02    1.408E-01    9.996E+00   -1.309E+00
     8     8.000E+06    9.456E-03    1.243E-01    1.091E+01   -3.924E-01
     9     9.000E+06    8.242E-03    1.083E-01    1.098E+01   -3.216E-01


     TOTAL HARMONIC DISTORTION =   4.327014E+02 PERCENT


          JOB CONCLUDED

          TOTAL JOB TIME             .75

