
**** 09/18/23 13:26:14 *********** Evaluation PSpice (Nov 1999) **************

 * C:\Users\Mariano\Desktop\D+I\docencia\redes 1\Guias\Guia 5\g5_p2.sch


 ****     CIRCUIT DESCRIPTION


******************************************************************************




* Schematics Version 9.1 - Web Update 1
* Mon Sep 18 13:26:11 2023



** Analysis setup **
.tran 0.001 .02
.OP 


* From [PSPICE NETLIST] section of pspiceev.ini:
.lib "nom.lib"

.INC "g5_p2.net"

**** INCLUDING g5_p2.net ****
* Schematics Netlist *



R_R1         $N_0002 $N_0001  1k  
V_V1         $N_0002 0 40V
R_R2         0 $N_0003  1k  
X_U1         0 $N_0001 Sw_tClose PARAMS: tClose=0.01 ttran=1u Rclosed=0.01
+  Ropen=1Meg
L_L1         $N_0001 $N_0003  1H IC=0 

**** RESUMING g5_p2.cir ****
.INC "g5_p2.als"



**** INCLUDING g5_p2.als ****
* Schematics Aliases *

.ALIASES
R_R1            R1(1=$N_0002 2=$N_0001 )
V_V1            V1(+=$N_0002 -=0 )
R_R2            R2(1=0 2=$N_0003 )
X_U1            U1(1=0 2=$N_0001 )
L_L1            L1(1=$N_0001 2=$N_0003 )
.ENDALIASES


**** RESUMING g5_p2.cir ****
.probe


.END

**** 09/18/23 13:26:14 *********** Evaluation PSpice (Nov 1999) **************

 * C:\Users\Mariano\Desktop\D+I\docencia\redes 1\Guias\Guia 5\g5_p2.sch


 ****     Voltage Controlled Switch MODEL PARAMETERS


******************************************************************************




               X_U1.Smod       
         RON     .01         
        ROFF    1.000000E+06 
         VON    1            
        VOFF    0            


**** 09/18/23 13:26:14 *********** Evaluation PSpice (Nov 1999) **************

 * C:\Users\Mariano\Desktop\D+I\docencia\redes 1\Guias\Guia 5\g5_p2.sch


 ****     SMALL SIGNAL BIAS SOLUTION       TEMPERATURE =   27.000 DEG C


******************************************************************************



 NODE   VOLTAGE     NODE   VOLTAGE     NODE   VOLTAGE     NODE   VOLTAGE


(X_U1.3)    0.0000 ($N_0001)   39.9600                   ($N_0002)   40.0000    

($N_0003) 39.96E-06                   




    VOLTAGE SOURCE CURRENTS
    NAME         CURRENT

    V_V1        -4.000E-05
    X_U1.V1      0.000E+00

    TOTAL POWER DISSIPATION   1.60E-03  WATTS


**** 09/18/23 13:26:14 *********** Evaluation PSpice (Nov 1999) **************

 * C:\Users\Mariano\Desktop\D+I\docencia\redes 1\Guias\Guia 5\g5_p2.sch


 ****     OPERATING POINT INFORMATION      TEMPERATURE =   27.000 DEG C


******************************************************************************






**** VOLTAGE CONTROLLED SWITCHES


NAME         X_U1.S1   
MODEL        X_U1.Smod 
I LOAD      -4.00E-05 
V LOAD      -4.00E+01 
R LOAD       1.00E+06 
V CTRL       0.00E+00 
**** 09/18/23 13:26:14 *********** Evaluation PSpice (Nov 1999) **************

 * C:\Users\Mariano\Desktop\D+I\docencia\redes 1\Guias\Guia 5\g5_p2.sch


 ****     INITIAL TRANSIENT SOLUTION       TEMPERATURE =   27.000 DEG C


******************************************************************************



 NODE   VOLTAGE     NODE   VOLTAGE     NODE   VOLTAGE     NODE   VOLTAGE


(X_U1.3)    0.0000 ($N_0001)   39.9600                   ($N_0002)   40.0000    

($N_0003) 39.96E-06                   




    VOLTAGE SOURCE CURRENTS
    NAME         CURRENT

    V_V1        -4.000E-05
    X_U1.V1      0.000E+00

    TOTAL POWER DISSIPATION   1.60E-03  WATTS



          JOB CONCLUDED

          TOTAL JOB TIME             .02
