Circuit: * E:\Claudio\Docencia personal\LTSpice\741\741disc_deajuste3.asc

Direct Newton iteration failed to find .op point.  (Use ".option noopiter" to skip.)
Starting Gmin stepping
Gmin = 10
Gmin = 1.07374
Gmin = 0.115292
Gmin = 0.0123794
Gmin = 0.00132923
Gmin = 0.000142725
Gmin = 1.5325e-005
Gmin = 1.6455e-006
Gmin = 1.76685e-007
vernier = 0.5
vernier = 0.666667
Gmin = 6.17442e-008
vernier = 0.888888
vernier = 1
Gmin = 9.33136e-009
Gmin = 1.00195e-009
Gmin = 1.07583e-010
Gmin = 1.15517e-011
Gmin = 1.24035e-012
Gmin = 1.33182e-013
Gmin = 0
Gmin stepping succeeded in finding the operating point.

Semiconductor Device Operating Points:
                        --- Diodes ---
Name:      d2          d1
Model:  cmdsh2-3    cmdsh2-3
Id:      8.64e-06    8.61e-06
Vd:      1.05e-01    1.05e-01
Req:     3.19e+03    3.20e+03
CAP:     5.29e-11    5.29e-11

                        --- Bipolar Transistors ---
Name:       q20         q13         q12         q9          q8
Model:    2n3906      2n3906      2n3906      2n3906      2n3906
Ib:      -3.19e-08   -2.89e-06   -2.89e-06   -8.51e-08   -8.51e-08
Ic:      -7.10e-06   -6.39e-04   -5.77e-04   -1.92e-05   -1.70e-05
Vbe:     -5.24e-01   -6.41e-01   -6.41e-01   -5.50e-01   -5.50e-01
Vbc:      1.15e+01    1.08e+01    0.00e+00    1.26e+01    0.00e+00
Vce:     -1.20e+01   -1.15e+01   -6.41e-01   -1.32e+01   -5.50e-01
BetaDC:   2.23e+02    2.21e+02    2.00e+02    2.25e+02    2.00e+02
Gm:       2.75e-04    2.47e-02    2.23e-02    7.41e-04    6.58e-04
Rpi:      8.12e+05    8.96e+03    8.96e+03    3.04e+05    3.04e+05
Rx:       2.00e+01    2.00e+01    2.00e+01    2.00e+01    2.00e+01
Ro:       1.57e+07    1.73e+05    1.73e+05    5.87e+06    5.87e+06
Cbe:      1.43e-11    2.41e-11    2.33e-11    1.48e-11    1.47e-11
Cbc:      1.79e-12    1.82e-12    4.50e-12    1.74e-12    4.50e-12
Cjs:      0.00e+00    0.00e+00    0.00e+00    0.00e+00    0.00e+00
BetaAC:   2.23e+02    2.21e+02    1.99e+02    2.25e+02    2.00e+02
Cbx:      0.00e+00    0.00e+00    0.00e+00    0.00e+00    0.00e+00
Ft:       2.71e+06    1.51e+08    1.27e+08    7.15e+06    5.44e+06

Name:       q4          q3          q22         q18         q17
Model:    2n3906      2n3906      2n3904      2n3904      2n3904
Ib:      -3.92e-08   -3.90e-08   -1.15e-12    1.83e-06    1.88e-06
Ic:      -8.60e-06   -8.57e-06    1.23e-12    5.52e-04    6.24e-04
Vbe:     -5.30e-01   -5.30e-01    3.19e-02    6.40e-01    6.40e-01
Vbc:      9.62e+00    9.76e+00   -1.18e+00   -4.10e-01   -1.08e+01
Vce:     -1.01e+01   -1.03e+01    1.22e+00    1.05e+00    1.14e+01
BetaDC:   2.19e+02    2.20e+02   -1.06e+00    3.01e+02    3.32e+02
Gm:       3.32e-04    3.31e-04    1.34e-12    2.13e-02    2.41e-02
Rpi:      6.60e+05    6.62e+05    9.96e+11    1.41e+04    1.38e+04
Rx:       2.00e+01    2.00e+01    2.00e+01    2.00e+01    2.00e+01
Ro:       1.28e+07    1.28e+07    2.91e+15    1.82e+05    1.78e+05
Cbe:      1.44e-11    1.44e-11    8.12e-12    1.99e-11    2.08e-11
Cbc:      1.89e-12    1.88e-12    2.93e-12    3.46e-12    1.62e-12
Cjs:      0.00e+00    0.00e+00    0.00e+00    0.00e+00    0.00e+00
BetaAC:   2.19e+02    2.19e+02    1.34e+00    3.00e+02    3.31e+02
Cbx:      0.00e+00    0.00e+00    0.00e+00    0.00e+00    0.00e+00
Ft:       3.25e+06    3.24e+06    1.29e-02    1.45e+08    1.71e+08

Name:       q16         q15         q14         q11         q10
Model:    2n3904      2n3904      2n3904      2n3904      2n3904
Ib:       4.54e-08   -5.27e-13    2.13e-08    1.94e-06    5.82e-08
Ic:       1.50e-05    5.37e-13    7.12e-06    5.81e-04    1.92e-05
Vbe:      5.44e-01    1.71e-04    5.24e-01    6.41e-01    5.50e-01
Vbc:     -1.03e+01   -5.24e-01   -1.15e+01    0.00e+00   -1.02e+01
Vce:      1.08e+01    5.25e-01    1.20e+01    6.41e-01    1.07e+01
BetaDC:   3.31e+02   -1.02e+00    3.35e+02    3.00e+02    3.31e+02
Gm:       5.80e-04    3.91e-13    2.75e-04    2.24e-02    7.44e-04
Rpi:      5.70e+05    9.99e+11    1.21e+06    1.33e+04    4.44e+05
Rx:       2.00e+01    2.00e+01    2.00e+01    2.00e+01    2.00e+01
Ro:       7.34e+06    9.93e+15    1.57e+07    1.72e+05    5.72e+06
Cbe:      1.18e-11    8.00e-12    1.15e-11    2.03e-11    1.19e-11
Cbc:      1.65e-12    3.36e-12    1.59e-12    4.00e-12    1.65e-12
Cjs:      0.00e+00    0.00e+00    0.00e+00    0.00e+00    0.00e+00
BetaAC:   3.31e+02    3.91e-01    3.34e+02    2.99e+02    3.30e+02
Cbx:      0.00e+00    0.00e+00    0.00e+00    0.00e+00    0.00e+00
Ft:       6.89e+06    1.29e-02    3.35e+06    1.47e+08    8.76e+06

Name:       q7          q6          q5          q2          q1
Model:    2n3904      2n3904      2n3904      2n3904      2n3904
Ib:       2.88e-08    2.83e-08    2.83e-08    2.57e-08    2.57e-08
Ic:       1.06e-05    8.55e-06    8.54e-06    8.61e-06    8.58e-06
Vbe:      5.32e-01    5.32e-01    5.32e-01    5.29e-01    5.29e-01
Vbc:     -2.29e+01   -6.76e-01   -5.32e-01   -1.15e+01   -1.15e+01
Vce:      2.35e+01    1.21e+00    1.06e+00    1.20e+01    1.20e+01
BetaDC:   3.69e+02    3.02e+02    3.02e+02    3.34e+02    3.34e+02
Gm:       4.11e-04    3.31e-04    3.30e-04    3.33e-04    3.32e-04
Rpi:      8.98e+05    9.14e+05    9.13e+05    1.00e+06    1.01e+06
Rx:       2.00e+01    2.00e+01    2.00e+01    2.00e+01    2.00e+01
Ro:       1.16e+07    1.18e+07    1.18e+07    1.29e+07    1.30e+07
Cbe:      1.16e-11    1.16e-11    1.16e-11    1.15e-11    1.15e-11
Cbc:      1.28e-12    3.24e-12    3.35e-12    1.59e-12    1.59e-12
Cjs:      0.00e+00    0.00e+00    0.00e+00    0.00e+00    0.00e+00
BetaAC:   3.69e+02    3.02e+02    3.02e+02    3.34e+02    3.34e+02
Cbx:      0.00e+00    0.00e+00    0.00e+00    0.00e+00    0.00e+00
Ft:       5.08e+06    3.56e+06    3.52e+06    4.03e+06    4.02e+06



Date: Mon Mar 28 12:50:50 2022
Total elapsed time: 0.271 seconds.

tnom = 27
temp = 27
method = trap
totiter = 750
traniter = 0
tranpoints = 0
accept = 0
rejected = 0
matrix size = 90
fillins = 106
solver = Normal
Thread vector: 5.5/4.5[2] 0.0/0.0[0] 1.6/1.9[1] 0.4/0.9[1]  2592/500
Matrix Compiler1: 13.96 KB object code size
Matrix Compiler2: 10.35 KB object code size  2.3/2.5/[0.9]

