Circuit: * E:\Claudio\Docencia personal\LTSpice\Fuentes\cargavariable.asc

Direct Newton iteration for .op point succeeded.
Semiconductor Device Operating Points:
                        --- Diodes ---
Name:    d:u2:1      d:u1:1        d1
Model:  u2:dmodel   u1:dmodel  bzx84b6v2l
Id:     -6.00e-12   -5.99e-12   -6.63e-03
Vd:     -5.00e+00   -4.99e+00   -6.20e+00
Req:     1.00e+12    1.00e+12    1.96e+00
CAP:     0.00e+00    0.00e+00    3.32e-08

                        --- Bipolar Transistors ---
Name:     q:u2:2      q:u2:1      q:u1:2      q:u1:1
Model:  u2:q1model   u2:qmodel  u1:q1model   u1:qmodel
Ib:       1.69e-05    2.76e-04    1.51e-03    3.72e-04
Ic:       3.87e-06    1.54e-02    3.40e-02    2.39e-02
Vbe:      6.31e-01    9.89e-01    9.14e-01    1.01e+00
Vbc:     -4.37e+00   -3.38e+00   -4.07e+00   -3.07e+00
Vce:      5.00e+00    4.37e+00    4.99e+00    4.07e+00
BetaDC:   2.30e-01    5.57e+01    2.25e+01    6.41e+01
Gm:       1.25e-04    4.65e-01    1.09e+00    7.01e-01
Rpi:      3.80e+03    1.82e+02    3.85e+01    1.30e+02
Rx:       4.02e-01    7.91e+00    4.02e-01    7.91e+00
Ro:       2.58e+08    6.48e+04    2.94e+04    4.18e+04
Cbe:      3.03e-10    7.43e-10    1.50e-09    1.20e-09
Cbc:        NaN       1.06e-09      NaN       1.08e-09
Cjs:      0.00e+00    0.00e+00    0.00e+00    0.00e+00
BetaAC:   4.74e-01    8.49e+01    4.18e+01    9.11e+01
Cbx:      0.00e+00    1.18e-10    0.00e+00    1.20e-10
Ft:       1.22e+05    3.85e+07    1.15e+08    4.64e+07



Date: Wed Jun 05 15:35:12 2024
Total elapsed time: 5.722 seconds.

tnom = 27
temp = 27
method = trap
totiter = 20
traniter = 0
tranpoints = 0
accept = 0
rejected = 0
matrix size = 32
fillins = 10
solver = Normal
Matrix Compiler1: 2.93 KB object code size
Matrix Compiler2: 2.96 KB object code size
