Circuit: * E:\Claudio\Docencia personal\LTSpice\Fuentes\fuente basica zener 1sc.asc

Direct Newton iteration for .op point succeeded.
Semiconductor Device Operating Points:
                        --- Diodes ---
Name:      d1        d:u1:1
Model: bzx84c8v2l    u1:dsub
Id:     -3.24e-03   -1.67e-11
Vd:     -8.29e+00   -1.07e+01
Req:     2.39e+01    1.00e+12
CAP:     4.43e-11    2.85e-11

                        --- Bipolar Transistors ---
Name:     q:u1:2      q:u1:1
Model:    u1:qpwr     u1:qpwr
Ib:      -1.22e-11   -1.09e-11
Ic:       1.87e-11    1.15e-11
Vbe:     -3.47e-09   -3.60e-07
Vbc:     -1.07e+01   -1.07e+01
Vce:      1.07e+01    1.07e+01
BetaDC:  -1.53e+00   -1.06e+00
Gm:       2.49e-10    2.49e-11
Rpi:      1.38e+08    1.37e+09
Rx:       1.32e+00    1.32e+01
Ro:       2.32e+13    2.32e+14
Cbe:      6.76e-10    6.76e-11
Cbc:      5.52e-11    5.52e-12
Cjs:      0.00e+00    0.00e+00
BetaAC:   3.43e-02    3.43e-02
Cbx:      0.00e+00    0.00e+00
Ft:       1.58e+00    1.58e+00



Date: Wed Jun 05 15:38:31 2024
Total elapsed time: 20.384 seconds.

tnom = 27
temp = 27
method = trap
totiter = 384
traniter = 0
tranpoints = 0
accept = 0
rejected = 0
matrix size = 13
fillins = 4
solver = Normal
Matrix Compiler1: 1.31 KB object code size
Matrix Compiler2: 1.24 KB object code size  0.3/0.3/[0.2]

