LTspice 24.0.12 for Windows
Circuit: * E:\Claudio\Docencia personal\LTSpice\Fuentes\fuente clase 1_b.asc
Start Time: Thu Oct 31 10:16:56 2024
Warning: Multiple definitions of model "2scr375p" Type: BJT
Warning: Multiple definitions of model "bc857b" Type: BJT
Warning: Multiple definitions of model "bc847c" Type: BJT
Warning: Multiple definitions of model "bc847b" Type: BJT
solver = Normal
Maximum thread count: 8
tnom = 27
temp = 27
method = modified trap
Direct Newton iteration for .op point succeeded.
Semiconductor Device Operating Points:
                        --- Diodes ---
Name:    d:u1:1        d1          d2          d3
Model:   u1:dsub   bzx84c6v2l       d           d
Id:     -1.33e-11   -3.04e-03    3.32e-03    3.32e-03
Vd:     -7.30e+00   -6.29e+00    6.86e-01    6.86e-01
Req:     1.00e+12    2.55e+01    7.79e+00    7.79e+00
CAP:     3.38e-11    6.85e-11    0.00e+00    0.00e+00

                        --- Bipolar Transistors ---
Name:     q:u1:1      q:u1:2        q1          q2
Model:    u1:qpwr     u1:qpwr     2n2222      2n3906
Ib:       2.86e-05    6.47e-06    1.50e-05   -1.50e-05
Ic:       3.02e-03    4.06e-04    3.03e-03   -3.11e-03
Vbe:      5.88e-01    4.66e-01    6.85e-01   -6.84e-01
Vbc:     -6.25e+00   -6.84e+00   -2.16e+00    4.88e+00
Vce:      6.84e+00    7.30e+00    2.85e+00   -5.56e+00
BetaDC:   1.06e+02    6.28e+01    2.02e+02    2.08e+02
Gm:       1.16e-01    1.57e-02    1.17e-01    1.19e-01
Rpi:      9.50e+02    5.23e+03    1.71e+03    1.73e+03
Rx:       1.32e+01    1.32e+00    1.00e+01    2.00e+01
Ro:       4.67e+04    3.51e+05    3.34e+04    3.37e+04
Cbe:      9.99e-09    2.37e-09    8.68e-11    5.78e-11
Cbc:      6.18e-12    6.07e-11    5.11e-12    2.31e-12
Cjs:      0.00e+00    0.00e+00    0.00e+00    0.00e+00
BetaAC:   1.10e+02    8.21e+01    2.00e+02    2.07e+02
Cbx:      0.00e+00    0.00e+00    0.00e+00    0.00e+00
Ft:       1.84e+06    1.03e+06    2.03e+08    3.16e+08


Total elapsed time: 0.186 seconds.

