Circuit: * E:\Claudio\Docencia personal\LTSpice\Fuentes\reguladorx1.asc

Direct Newton iteration failed to find .op point.  (Use ".option noopiter" to skip.)
Starting Gmin stepping
Increasing initial diagonal Gmin to 100
Increasing initial diagonal Gmin to 1000
Gmin = 1000
vernier = 0.5
vernier = 0.25
vernier = 0.125
vernier = 0.0625
Gmin = 836.601
vernier = 0.03125
vernier = 0.015625
vernier = 0.0078125
vernier = 0.00390625
Gmin = 822.125
vernier = 0.00195313
vernier = 0.000976563
vernier = 0.000488281
Gmin = 0
Gmin = 0
Gmin stepping failed

Starting source stepping with srcstepmethod=0
Source Step = 3.0303%
Source Step = 33.3333%
Source Step = 63.6364%
Source Step = 78.7997%
vernier = 0.000976563
Source Step = 78.8175%
Source Step = 78.8471%
Source Step = 78.8767%
Source Step = 78.9062%
Source Step = 78.9358%
vernier = 0.00146484
Source Step = 78.9758%
Source Step = 79.0202%
Source Step = 79.0646%
Source Step = 79.109%
Source Step = 79.1533%
vernier = 0.00219727
Source Step = 79.2111%
Source Step = 79.2776%
Source Step = 79.3442%
Source Step = 79.4108%
Source Step = 79.4774%
vernier = 0.0032959
Source Step = 79.5606%
Source Step = 79.6605%
Source Step = 79.7604%
Source Step = 79.8602%
Source Step = 79.9601%
vernier = 0.00494385
Source Step = 80.08%
Source Step = 80.2298%
Source Step = 80.3796%
Source Step = 80.5294%
Source Step = 80.6792%
vernier = 0.00741577
Source Step = 80.8515%
Source Step = 81.0762%
Source Step = 81.301%
Source Step = 81.5257%
Source Step = 81.7504%
vernier = 0.0111237
Source Step = 81.9976%
Source Step = 82.3347%
Source Step = 82.6717%
Source Step = 83.0088%
Source Step = 83.3459%
vernier = 0.0166855
Source Step = 83.6998%
Source Step = 84.2055%
Source Step = 84.7111%
Source Step = 85.2167%
Source Step = 85.7223%
Source Step = 86.2279%
vernier = 0.0250282
Source Step = 86.9864%
Source Step = 87.7448%
Source Step = 88.5032%
Source Step = 89.2617%
Source Step = 90.0201%
Source Step = 90.058%
Source Step = 90.1054%
Source Step = 90.1528%
Source Step = 90.2002%
Source Step = 90.2476%
Source Step = 90.295%
vernier = 0.0023464
Source Step = 90.3519%
Source Step = 90.423%
Source Step = 90.4941%
Source Step = 90.5652%
Source Step = 90.6363%
vernier = 0.00351959
Source Step = 90.7181%
Source Step = 90.8248%
Source Step = 90.9314%
Source Step = 91.0381%
Source Step = 91.1447%
vernier = 0.00527939
Source Step = 91.262%
Source Step = 91.422%
Source Step = 91.582%
Source Step = 91.742%
Source Step = 91.902%
vernier = 0.00791909
Source Step = 92.0699%
Source Step = 92.3099%
Source Step = 92.5499%
Source Step = 92.7899%
Source Step = 93.0298%
Source Step = 93.2698%
vernier = 0.0118786
Source Step = 93.6298%
Source Step = 93.9897%
Source Step = 94.3497%
Source Step = 94.7096%
Source Step = 95.0696%
vernier = 0.0178179
Source Step = 95.5915%
Source Step = 96.1315%
Source Step = 96.6714%
Source Step = 97.2114%
Source Step = 97.7513%
vernier = 0.0267269
Source Step = 98.5072%
Source Step = 99.3171%
Source stepping succeeded in finding the operating point.

Semiconductor Device Operating Points:
                        --- Diodes ---
Name:    d:u3:1      d:u2:1      d:u1:p      d:u1:ln     d:u1:lp
Model:  u3:dmodel   u2:dmodel     u1:dx       u1:dx       u1:dx
Id:     -1.78e-11   -6.41e-12   -1.80e-11   -4.07e-11   -3.93e-11
Vd:     -1.68e+01   -5.41e+00   -1.80e+01   -4.07e+01   -3.93e+01
Req:     1.00e+12    1.00e+12    1.00e+12    1.00e+12    1.00e+12
CAP:     0.00e+00    0.00e+00    0.00e+00    0.00e+00    0.00e+00

Name:    d:u1:e      d:u1:c        d2          d1
Model:    u1:dy       u1:dy    bzx84c6v2l  bzx84c6v2l
Id:     -1.35e-11   -1.78e-12   -6.19e-03   -1.46e-03
Vd:     -1.37e+01   -2.35e+00   -6.34e+00   -6.23e+00
Req:     1.00e+12    1.00e+12    1.25e+01    5.32e+01
CAP:     2.61e-12    5.47e-12    6.83e-11    6.88e-11

                        --- Bipolar Transistors ---
Name:     q:u3:2      q:u3:1      q:u2:2      q:u2:1      q:u1:2
Model:  u3:q1model   u3:qmodel  u2:q1model   u2:qmodel     u1:qx
Ib:       1.15e-02    5.06e-04    1.17e-02    5.12e-04    7.80e-08
Ic:       8.71e-01    3.68e-02    8.75e-01    3.69e-02    7.32e-06
Vbe:      1.04e+00    1.03e+00    1.04e+00    1.03e+00    5.93e-01
Vbc:     -1.58e+01   -1.47e+01   -4.37e+00   -3.35e+00   -1.30e+01
Vce:      1.68e+01    1.58e+01    5.41e+00    4.37e+00    1.36e+01
BetaDC:   7.57e+01    7.26e+01    7.51e+01    7.20e+01    9.38e+01
Gm:       2.41e+01    1.04e+00    2.41e+01    1.04e+00    2.83e-04
Rpi:      3.96e+00    9.17e+01    3.90e+00    9.04e+01    3.31e+05
Rx:       4.02e-01    7.91e+00    4.02e-01    7.91e+00    0.00e+00
Ro:       1.16e+03    2.74e+04    1.14e+03    2.70e+04    0.00e+00
Cbe:      3.23e-08    1.41e-09    4.19e-08    1.84e-09    0.00e+00
Cbc:      0.00e+00    7.90e-10      NaN       1.07e-09    0.00e+00
Cjs:      0.00e+00    0.00e+00    0.00e+00    0.00e+00    0.00e+00
BetaAC:   9.53e+01    9.51e+01    9.42e+01    9.41e+01    9.37e+01
Cbx:      0.00e+00    8.78e-11    0.00e+00    1.18e-10    0.00e+00
Ft:       1.19e+08    7.22e+07    9.17e+07    5.47e+07    0.00e+00

Name:     q:u1:1        q4
Model:     u1:qx      2n2222
Ib:       7.83e-08    4.55e-07
Ic:       7.34e-06    9.29e-05
Vbe:      5.93e-01    5.93e-01
Vbc:     -1.30e+01   -2.06e+00
Vce:      1.36e+01    2.66e+00
BetaDC:   9.38e+01    2.04e+02
Gm:       2.84e-04    3.59e-03
Rpi:      3.30e+05    5.68e+04
Rx:       0.00e+00    1.00e+01
Ro:       0.00e+00    1.10e+06
Cbe:      0.00e+00    3.89e-11
Cbc:      0.00e+00    5.17e-12
Cjs:      0.00e+00    0.00e+00
BetaAC:   9.37e+01    2.04e+02
Cbx:      0.00e+00    0.00e+00
Ft:       0.00e+00    1.30e+07



Date: Thu Aug 03 13:59:40 2023
Total elapsed time: 41.989 seconds.

tnom = 27
temp = 27
method = trap
totiter = 1763
traniter = 0
tranpoints = 0
accept = 0
rejected = 0
matrix size = 64
fillins = 88
solver = Normal
Matrix Compiler1: 8.91 KB object code size
Matrix Compiler2: 7.12 KB object code size  1.2/1.2/[0.7]

