Circuit: * E:\Claudio\Docencia personal\LTSpice\Fuentes\reguladorx.asc

Direct Newton iteration failed to find .op point.  (Use ".option noopiter" to skip.)
Starting Gmin stepping
Increasing initial diagonal Gmin to 100
Increasing initial diagonal Gmin to 1000
Gmin = 1000
vernier = 0.5
vernier = 0.25
vernier = 0.125
vernier = 0.0625
Gmin = 836.601
vernier = 0.03125
vernier = 0.015625
vernier = 0.0078125
vernier = 0.00390625
Gmin = 822.125
vernier = 0.00195313
vernier = 0.000976563
vernier = 0.000488281
Gmin = 0
Gmin = 0
Gmin stepping failed

Starting source stepping with srcstepmethod=0
Source Step = 3.0303%
Source Step = 33.3333%
Source Step = 63.6364%
Source Step = 79.5455%
Source Step = 87.1212%
Source Step = 94.697%
Source stepping succeeded in finding the operating point.

Semiconductor Device Operating Points:
                        --- Diodes ---
Name:    d:u3:1      d:u2:1      d:u1:p      d:u1:ln     d:u1:lp
Model:  u3:dmodel   u2:dmodel     u1:dx       u1:dx       u1:dx
Id:     -1.80e-11   -6.95e-12   -1.80e-11   -4.05e-11   -3.95e-11
Vd:     -1.70e+01   -5.95e+00   -1.80e+01   -4.05e+01   -3.95e+01
Req:     1.00e+12    1.00e+12    1.00e+12    1.00e+12    1.00e+12
CAP:     0.00e+00    0.00e+00    0.00e+00    0.00e+00    0.00e+00

Name:    d:u1:e      d:u1:c        d1
Model:    u1:dy       u1:dy    bzx84c6v2l
Id:     -1.29e-11   -1.78e-12   -1.46e-03
Vd:     -1.30e+01   -3.02e+00   -6.23e+00
Req:     1.00e+12    1.00e+12    5.32e+01
CAP:     2.67e-12    4.99e-12    6.88e-11

                        --- Bipolar Transistors ---
Name:     q:u3:2      q:u3:1      q:u2:2      q:u2:1      q:u1:2
Model:  u3:q1model   u3:qmodel  u2:q1model   u2:qmodel     u1:qx
Ib:       1.75e-03    3.74e-04    1.85e-03    3.79e-04    7.80e-08
Ic:       4.50e-02    2.43e-02    4.94e-02    2.45e-02    7.32e-06
Vbe:      9.23e-01    1.01e+00    9.26e-01    1.01e+00    5.93e-01
Vbc:     -1.61e+01   -1.51e+01   -5.03e+00   -4.02e+00   -1.30e+01
Vce:      1.70e+01    1.61e+01    5.95e+00    5.03e+00    1.36e+01
BetaDC:   2.57e+01    6.50e+01    2.67e+01    6.47e+01    9.38e+01
Gm:       1.44e+00    7.14e-01    1.57e+00    7.18e-01    2.83e-04
Rpi:      3.28e+01    1.29e+02    3.09e+01    1.27e+02    3.31e+05
Rx:       4.02e-01    7.91e+00    4.02e-01    7.91e+00    0.00e+00
Ro:       2.24e+04    4.15e+04    2.03e+04    4.07e+04    0.00e+00
Cbe:      1.85e-09    9.46e-10    2.06e-09    1.20e-09    0.00e+00
Cbc:      0.00e+00    7.86e-10      NaN       1.03e-09    0.00e+00
Cjs:      0.00e+00    0.00e+00    0.00e+00    0.00e+00    0.00e+00
BetaAC:   4.71e+01    9.23e+01    4.85e+01    9.15e+01    9.37e+01
Cbx:      0.00e+00    8.73e-11    0.00e+00    1.14e-10    0.00e+00
Ft:       1.24e+08    6.24e+07    1.22e+08    4.87e+07    0.00e+00

Name:     q:u1:1        q4
Model:     u1:qx      2n2222
Ib:       7.83e-08   -1.89e-12
Ic:       7.34e-06    2.00e-12
Vbe:      5.93e-01    4.83e-02
Vbc:     -1.30e+01   -1.93e+00
Vce:      1.36e+01    1.98e+00
BetaDC:   9.38e+01   -1.06e+00
Gm:       2.84e-04    2.55e-12
Rpi:      3.30e+05    9.88e+11
Rx:       0.00e+00    1.00e+01
Ro:       0.00e+00    1.54e+15
Cbe:      0.00e+00    2.56e-11
Cbc:      0.00e+00    5.25e-12
Cjs:      0.00e+00    0.00e+00
BetaAC:   9.37e+01    2.52e+00
Cbx:      0.00e+00    0.00e+00
Ft:       0.00e+00    1.21e-02



Date: Wed Jul 12 15:40:04 2023
Total elapsed time: 75.009 seconds.

tnom = 27
temp = 27
method = trap
totiter = 1631
traniter = 0
tranpoints = 0
accept = 0
rejected = 0
matrix size = 62
fillins = 78
solver = Normal
Matrix Compiler1: 8.00 KB object code size
Matrix Compiler2: 6.72 KB object code size  1.0/1.4/[0.6]

