Circuit: * E:\Claudio\Docencia personal\LTSpice\Fuentes\reguladorx1_1.asc

Direct Newton iteration failed to find .op point.  (Use ".option noopiter" to skip.)
Starting Gmin stepping
Increasing initial diagonal Gmin to 100
Increasing initial diagonal Gmin to 1000
Gmin = 1000
vernier = 0.5
vernier = 0.25
vernier = 0.125
vernier = 0.0625
Gmin = 836.601
vernier = 0.03125
vernier = 0.015625
vernier = 0.0078125
vernier = 0.00390625
Gmin = 822.125
vernier = 0.00195313
vernier = 0.000976563
vernier = 0.000488281
Gmin = 0
Gmin = 0
Gmin stepping succeeded in finding the operating point.

Semiconductor Device Operating Points:
                        --- Diodes ---
Name:    d:u2:1      d:u1:p      d:u1:ln     d:u1:lp     d:u1:e
Model:  u2:dmodel     u1:dx       u1:dx       u1:dx       u1:dy
Id:     -1.90e-11   -1.80e-11   -1.97e-05   -8.07e-11    4.07e-02
Vd:     -1.80e+01   -1.80e+01    6.57e-01   -8.07e+01    8.16e-01
Req:     1.00e+12    1.00e+12    3.03e+02    1.00e+12    6.36e-01
CAP:     0.00e+00    0.00e+00    0.00e+00    0.00e+00    1.86e-11

Name:    d:u1:c        d1
Model:    u1:dy    bzx84c6v2l
Id:     -1.68e-11   -1.46e-03
Vd:     -1.68e+01   -6.23e+00
Req:     1.00e+12    5.32e+01
CAP:     2.37e-12    6.88e-11

                        --- Bipolar Transistors ---
Name:     q:u2:2      q:u2:1      q:u1:2      q:u1:1        q4
Model:  u2:q1model   u2:qmodel     u1:qx       u1:qx      2n2222
Ib:      -6.98e-12    7.28e-10    1.56e-07   -2.24e-11   -1.87e-13
Ic:       2.00e-11    1.80e-11    1.47e-05    1.80e-11    1.97e-13
Vbe:      9.12e-04    1.82e-01    6.11e-01   -4.36e+00    1.48e-05
Vbc:     -1.80e+01   -1.78e+01   -1.29e+01   -1.80e+01   -1.83e-01
Vce:      1.80e+01    1.80e+01    1.35e+01    1.36e+01    1.83e-01
BetaDC:  -2.87e+00    2.48e-02    9.38e+01   -8.05e-01   -1.05e+00
Gm:       1.95e-13    3.43e-12    5.67e-04    2.04e-87    3.87e-13
Rpi:      6.97e+07    8.11e+07    1.65e+05    1.00e+12    9.98e+11
Rx:       4.02e-01    7.91e+00    0.00e+00    0.00e+00    1.00e+01
Ro:       1.69e+17    9.56e+15    0.00e+00    0.00e+00    2.36e+15
Cbe:      1.97e-10    1.10e-11    0.00e+00    0.00e+00    2.50e-11
Cbc:      0.00e+00    7.57e-10    0.00e+00    0.00e+00    7.44e-12
Cjs:      0.00e+00    0.00e+00    0.00e+00    0.00e+00    0.00e+00
BetaAC:   1.36e-05    2.78e-04    9.37e+01    2.04e-75    3.86e-01
Cbx:      0.00e+00    8.42e-11    0.00e+00    0.00e+00    0.00e+00
Ft:       1.16e+01    2.30e+00    0.00e+00    0.00e+00    4.53e-03



Date: Tue Aug 29 15:37:15 2023
Total elapsed time: 0.591 seconds.

tnom = 27
temp = 27
method = trap
totiter = 1912
traniter = 0
tranpoints = 0
accept = 0
rejected = 0
matrix size = 50
fillins = 69
solver = Normal
Matrix Compiler1: 6.10 KB object code size
Matrix Compiler2: 5.50 KB object code size  1.3/1.7/[0.8]

