
**** 08/23/23 14:25:19 *********** Evaluation PSpice (Nov 1999) **************

 * C:\Users\Mariano\Desktop\D+I\docencia\redes 1\Guias\Guia 2\g2_p16.sch


 ****     CIRCUIT DESCRIPTION


******************************************************************************




* Schematics Version 9.1 - Web Update 1
* Mon Aug 14 15:23:29 2023



** Analysis setup **
.tran .0001 3.1
.OP 


* From [PSPICE NETLIST] section of pspiceev.ini:
.lib "nom.lib"

.INC "g2_p16.net"

**** INCLUDING g2_p16.net ****
* Schematics Netlist *



R_R2         0 $N_0001  5  
R_R1         0 $N_0002  5  
C_C1         0 $N_0003  0.2 IC=0 
R_R3         $N_0003 $N_0002  1e12  
V_V1         $N_0002 $N_0004 10v
R_R10         $N_0001 $N_0004  2  
I_I1         $N_0003 $N_0002 DC 0 AC 0
+PWL 0 0 0.0001 1 2 1 2.0001 -1 3 -1 3.0001 0 4 0 
I_I2         $N_0003 $N_0001 DC 0 AC 0
+PWL 0 0 1 0 1.0001 -1 2 -1 2.0001 1 3 1 3.0001 0 4 0 

**** RESUMING g2_p16.cir ****
.INC "g2_p16.als"



**** INCLUDING g2_p16.als ****
* Schematics Aliases *

.ALIASES
R_R2            R2(1=0 2=$N_0001 )
R_R1            R1(1=0 2=$N_0002 )
C_C1            C1(1=0 2=$N_0003 )
R_R3            R3(1=$N_0003 2=$N_0002 )
V_V1            V1(+=$N_0002 -=$N_0004 )
R_R10           R10(1=$N_0001 2=$N_0004 )
I_I1            I1(+=$N_0003 -=$N_0002 )
I_I2            I2(+=$N_0003 -=$N_0001 )
.ENDALIASES


**** RESUMING g2_p16.cir ****
.probe


.END

**** 08/23/23 14:25:19 *********** Evaluation PSpice (Nov 1999) **************

 * C:\Users\Mariano\Desktop\D+I\docencia\redes 1\Guias\Guia 2\g2_p16.sch


 ****     SMALL SIGNAL BIAS SOLUTION       TEMPERATURE =   27.000 DEG C


******************************************************************************



 NODE   VOLTAGE     NODE   VOLTAGE     NODE   VOLTAGE     NODE   VOLTAGE


($N_0001)   -4.1667                   ($N_0002)    4.1667                       

($N_0003) 8.333E-15                   ($N_0004)   -5.8333                   




    VOLTAGE SOURCE CURRENTS
    NAME         CURRENT

    V_V1        -8.333E-01

    TOTAL POWER DISSIPATION   8.33E+00  WATTS


**** 08/23/23 14:25:19 *********** Evaluation PSpice (Nov 1999) **************

 * C:\Users\Mariano\Desktop\D+I\docencia\redes 1\Guias\Guia 2\g2_p16.sch


 ****     OPERATING POINT INFORMATION      TEMPERATURE =   27.000 DEG C


******************************************************************************




**** 08/23/23 14:25:19 *********** Evaluation PSpice (Nov 1999) **************

 * C:\Users\Mariano\Desktop\D+I\docencia\redes 1\Guias\Guia 2\g2_p16.sch


 ****     INITIAL TRANSIENT SOLUTION       TEMPERATURE =   27.000 DEG C


******************************************************************************



 NODE   VOLTAGE     NODE   VOLTAGE     NODE   VOLTAGE     NODE   VOLTAGE


($N_0001)   -4.1667                   ($N_0002)    4.1667                       

($N_0003) 8.333E-15                   ($N_0004)   -5.8333                   




    VOLTAGE SOURCE CURRENTS
    NAME         CURRENT

    V_V1        -8.333E-01

    TOTAL POWER DISSIPATION   8.33E+00  WATTS



          JOB CONCLUDED

          TOTAL JOB TIME            0.00
