
**** 08/14/23 14:26:18 *********** Evaluation PSpice (Nov 1999) **************

 * C:\Users\Mariano\Desktop\D+I\docencia\redes 1\Guias\Guia 2\g2_p7.sch


 ****     CIRCUIT DESCRIPTION


******************************************************************************




* Schematics Version 9.1 - Web Update 1
* Mon Aug 14 14:26:15 2023



** Analysis setup **
.OP 


* From [PSPICE NETLIST] section of pspiceev.ini:
.lib "nom.lib"

.INC "g2_p7.net"

**** INCLUDING g2_p7.net ****
* Schematics Netlist *



V_V2         $N_0001 0 1V
V_V1         $N_0002 0 1V
R_R1         $N_0002 $N_0003  1  
R_R5         0 $N_0003  1  
R_R2         $N_0003 $N_0004  1  
R_R6         0 $N_0004  1  
R_R3         $N_0004 $N_0005  1  
R_R7         0 $N_0005  1  
R_R4         $N_0005 $N_0006  1  
R_R8         0 $N_0006  1  
R_R10         $N_0001 $N_0007  1  
R_R9         0 $N_0007  1  

**** RESUMING g2_p7.cir ****
.INC "g2_p7.als"



**** INCLUDING g2_p7.als ****
* Schematics Aliases *

.ALIASES
V_V2            V2(+=$N_0001 -=0 )
V_V1            V1(+=$N_0002 -=0 )
R_R1            R1(1=$N_0002 2=$N_0003 )
R_R5            R5(1=0 2=$N_0003 )
R_R2            R2(1=$N_0003 2=$N_0004 )
R_R6            R6(1=0 2=$N_0004 )
R_R3            R3(1=$N_0004 2=$N_0005 )
R_R7            R7(1=0 2=$N_0005 )
R_R4            R4(1=$N_0005 2=$N_0006 )
R_R8            R8(1=0 2=$N_0006 )
R_R10           R10(1=$N_0001 2=$N_0007 )
R_R9            R9(1=0 2=$N_0007 )
.ENDALIASES


**** RESUMING g2_p7.cir ****
.probe


.END

**** 08/14/23 14:26:18 *********** Evaluation PSpice (Nov 1999) **************

 * C:\Users\Mariano\Desktop\D+I\docencia\redes 1\Guias\Guia 2\g2_p7.sch


 ****     SMALL SIGNAL BIAS SOLUTION       TEMPERATURE =   27.000 DEG C


******************************************************************************



 NODE   VOLTAGE     NODE   VOLTAGE     NODE   VOLTAGE     NODE   VOLTAGE


($N_0001)    1.0000                   ($N_0002)    1.0000                       

($N_0003)     .3824                   ($N_0004)     .1471                       

($N_0005)     .0588                   ($N_0006)     .0294                       

($N_0007)     .5000                   




    VOLTAGE SOURCE CURRENTS
    NAME         CURRENT

    V_V2        -5.000E-01
    V_V1        -6.176E-01

    TOTAL POWER DISSIPATION   1.12E+00  WATTS


**** 08/14/23 14:26:18 *********** Evaluation PSpice (Nov 1999) **************

 * C:\Users\Mariano\Desktop\D+I\docencia\redes 1\Guias\Guia 2\g2_p7.sch


 ****     OPERATING POINT INFORMATION      TEMPERATURE =   27.000 DEG C


******************************************************************************





          JOB CONCLUDED

          TOTAL JOB TIME            0.00
