
**** 08/14/23 14:16:46 *********** Evaluation PSpice (Nov 1999) **************

 * C:\Users\Mariano\Desktop\D+I\docencia\redes 1\Guias\Guia 2\g2_p6.sch


 ****     CIRCUIT DESCRIPTION


******************************************************************************




* Schematics Version 9.1 - Web Update 1
* Mon Aug 14 14:16:46 2023



** Analysis setup **
.OP 


* From [PSPICE NETLIST] section of pspiceev.ini:
.lib "nom.lib"

.INC "g2_p6.net"

**** INCLUDING g2_p6.net ****
* Schematics Netlist *



R_R6         0 $N_0001  3  
R_R4         0 $N_0001  1  
R_R5         $N_0001 $N_0002  2  
R_R1         $N_0002 $N_0003  2  
R_R3         0 $N_0003  1  
R_R2         $N_0003 0  3  
V_V1         $N_0002 0 1V

**** RESUMING g2_p6.cir ****
.INC "g2_p6.als"



**** INCLUDING g2_p6.als ****
* Schematics Aliases *

.ALIASES
R_R6            R6(1=0 2=$N_0001 )
R_R4            R4(1=0 2=$N_0001 )
R_R5            R5(1=$N_0001 2=$N_0002 )
R_R1            R1(1=$N_0002 2=$N_0003 )
R_R3            R3(1=0 2=$N_0003 )
R_R2            R2(1=$N_0003 2=0 )
V_V1            V1(+=$N_0002 -=0 )
.ENDALIASES


**** RESUMING g2_p6.cir ****
.probe


.END

**** 08/14/23 14:16:46 *********** Evaluation PSpice (Nov 1999) **************

 * C:\Users\Mariano\Desktop\D+I\docencia\redes 1\Guias\Guia 2\g2_p6.sch


 ****     SMALL SIGNAL BIAS SOLUTION       TEMPERATURE =   27.000 DEG C


******************************************************************************



 NODE   VOLTAGE     NODE   VOLTAGE     NODE   VOLTAGE     NODE   VOLTAGE


($N_0001)     .2727                   ($N_0002)    1.0000                       

($N_0003)     .2727                   




    VOLTAGE SOURCE CURRENTS
    NAME         CURRENT

    V_V1        -7.273E-01

    TOTAL POWER DISSIPATION   7.27E-01  WATTS


**** 08/14/23 14:16:46 *********** Evaluation PSpice (Nov 1999) **************

 * C:\Users\Mariano\Desktop\D+I\docencia\redes 1\Guias\Guia 2\g2_p6.sch


 ****     OPERATING POINT INFORMATION      TEMPERATURE =   27.000 DEG C


******************************************************************************





          JOB CONCLUDED

          TOTAL JOB TIME            0.00
