
   --- Expanded Deck Component Count ---
I's 1
Q's 1
V's 1
tot: 3


    --- Expanded Netlist ---
* C:\Claudio\Docencia personal\LTSpice\Varios\curva de Beta tbj.asc
q1 n001 n002 0 0 2n2222
v1 n001 0 10
i1 0 n002 100µ
.model 2n2222 npn(is=1e-14 vaf=100 bf=200 ikf=0.3 xtb=1.5 br=3 cjc=8e-12 cje=25e-12 tr=100e-9 tf=400e-12 itf=1 vtf=2 xtf=3 rb=10 rc=.3 re=.2 vceo=30 icrating=800m mfg=philips)
.op
.end

Direct Newton iteration for .op point succeeded.
Semiconductor Device Operating Points:
                        --- Bipolar Transistors ---
Name:       q1
Model:    2n2222
Ib:       1.00e-04
Ic:       2.06e-02
Vbe:      7.38e-01
Vbc:     -9.26e+00
Vce:      1.00e+01
BetaDC:   2.06e+02
Gm:       7.50e-01
Rpi:      2.59e+02
Rx:       1.00e+01
Ro:       5.31e+03
Cbe:      3.42e-10
Cbc:      3.40e-12
Cjs:      0.00e+00
BetaAC:   1.94e+02
Cbx:      0.00e+00
Ft:       3.46e+08



Date: Thu Oct 31 17:57:03 2019
Total elapsed time: 0.031 seconds.

tnom = 27
temp = 27
method = trap
totiter = 4
traniter = 0
tranpoints = 0
accept = 0
rejected = 0
matrix size = 6
fillins = 0
solver = Normal
Matrix Compiler1: 360 bytes object code size
Matrix Compiler2: 462 bytes object code size

