Circuit: * E:\Claudio\Docencia personal\LTSpice\Varios\diferencial con derivacion.asc

Direct Newton iteration for .op point succeeded.
Semiconductor Device Operating Points:
                        --- Diodes ---
Name:    d:u1:p      d:u1:ln     d:u1:lp     d:u1:e      d:u1:c
Model:    u1:dx       u1:dx       u1:dx       u1:dy       u1:dy
Id:     -2.40e-11   -3.97e-11   -4.03e-11   -3.55e-12   -1.95e-11
Vd:     -2.40e+01   -3.97e+01   -4.03e+01   -3.00e+00   -1.90e+01
Req:     1.00e+12    1.00e+12    1.00e+12    1.00e+12    1.00e+12
CAP:     0.00e+00    0.00e+00    0.00e+00    5.00e-12    2.24e-12

                        --- Bipolar Transistors ---
Name:     q:u1:2      q:u1:1
Model:     u1:qx       u1:qx
Ib:       7.99e-08    8.00e-08
Ic:       7.49e-06    7.50e-06
Vbe:      5.94e-01    5.94e-01
Vbc:     -1.16e+01   -1.16e+01
Vce:      1.22e+01    1.22e+01
BetaDC:   9.38e+01    9.38e+01
Gm:       2.89e-04    2.90e-04
Rpi:      3.24e+05    3.23e+05
Rx:       0.00e+00    0.00e+00
Ro:       0.00e+00    0.00e+00
Cbe:      0.00e+00    0.00e+00
Cbc:      0.00e+00    0.00e+00
Cjs:      0.00e+00    0.00e+00
BetaAC:   9.37e+01    9.37e+01
Cbx:      0.00e+00    0.00e+00
Ft:       0.00e+00    0.00e+00



Date: Wed Jun 05 15:53:55 2024
Total elapsed time: 0.171 seconds.

tnom = 27
temp = 27
method = trap
totiter = 12
traniter = 0
tranpoints = 0
accept = 0
rejected = 0
matrix size = 41
fillins = 56
solver = Normal
Matrix Compiler1: 4.60 KB object code size
Matrix Compiler2: 4.25 KB object code size
