Circuit: * E:\Claudio\Docencia personal\LTSpice\Varios\fuente de corriente 1.asc

Direct Newton iteration failed to find .op point.  (Use ".option noopiter" to skip.)
Starting Gmin stepping
Increasing initial diagonal Gmin to 100
Increasing initial diagonal Gmin to 1000
Gmin = 1000
vernier = 0.5
vernier = 0.25
vernier = 0.125
vernier = 0.0625
Gmin = 836.601
vernier = 0.03125
vernier = 0.015625
vernier = 0.0078125
vernier = 0.00390625
Gmin = 822.125
vernier = 0.00195313
vernier = 0.000976563
vernier = 0.000488281
Gmin = 0
Gmin = 0
Gmin stepping failed

Starting source stepping with srcstepmethod=0
Source Step = 3.0303%
Source Step = 33.3333%
Source Step = 63.6364%
Source Step = 93.9394%
Source stepping succeeded in finding the operating point.

Semiconductor Device Operating Points:
                        --- Diodes ---
Name:    d:u1:p      d:u1:ln     d:u1:lp     d:u1:e      d:u1:c
Model:    u1:dx       u1:dx       u1:dx       u1:dy       u1:dy
Id:     -2.40e-11   -4.00e-11   -4.00e-11   -1.07e-11   -1.24e-11
Vd:     -2.40e+01   -4.00e+01   -4.00e+01   -9.81e+00   -1.22e+01
Req:     1.00e+12    1.00e+12    1.00e+12    1.00e+12    1.00e+12
CAP:     0.00e+00    0.00e+00    0.00e+00    3.04e-12    2.75e-12

                        --- Bipolar Transistors ---
Name:     q:u1:2      q:u1:1        q1
Model:     u1:qx       u1:qx      2n2219a
Ib:       8.02e-08    8.01e-08    1.07e-06
Ic:       7.52e-06    7.51e-06    1.40e-04
Vbe:      5.94e-01    5.94e-01    5.92e-01
Vbc:     -1.10e+01   -1.10e+01   -8.41e+00
Vce:      1.16e+01    1.16e+01    9.00e+00
BetaDC:   9.38e+01    9.38e+01    1.31e+02
Gm:       2.91e-04    2.91e-04    5.40e-03
Rpi:      3.23e+05    3.23e+05    2.77e+04
Rx:       0.00e+00    0.00e+00    1.00e+01
Ro:       0.00e+00    0.00e+00    5.90e+05
Cbe:      0.00e+00    0.00e+00    3.70e-11
Cbc:      0.00e+00    0.00e+00    3.11e-12
Cjs:      0.00e+00    0.00e+00    0.00e+00
BetaAC:   9.37e+01    9.37e+01    1.49e+02
Cbx:      0.00e+00    0.00e+00    0.00e+00
Ft:       0.00e+00    0.00e+00    2.14e+07

                        --- JFET Transistors ---
Name:      j1
Model:   2n3819
Id:      6.03e-05
Vgs:    -2.79e+00
Vds:     8.41e+00
Gm:      5.66e-04
Gds:     1.33e-07
Cgs:     1.49e-12
Cgd:     6.47e-13



Date: Thu Nov 02 15:19:14 2023
Total elapsed time: 0.275 seconds.

tnom = 27
temp = 27
method = trap
totiter = 1863
traniter = 0
tranpoints = 0
accept = 0
rejected = 0
matrix size = 42
fillins = 67
solver = Normal
Matrix Compiler1: 4.85 KB object code size
Matrix Compiler2: 4.72 KB object code size  1.1/1.4/[0.6]

